Freq.	V(vout)/V(vin)
1.25000000000000e+008	(1.74005422026801e+001dB,1.77185798706046e+002°)
1.25037503750375e+008	(1.74005432076005e+001dB,1.77184618826555e+002°)
1.25075007500750e+008	(1.74005442126195e+001dB,1.77183439049407e+002°)
1.25112511251125e+008	(1.74005452176906e+001dB,1.77182259374502e+002°)
1.25150015001500e+008	(1.74005462228764e+001dB,1.77181079801758e+002°)
1.25187518751875e+008	(1.74005472281483e+001dB,1.77179900331088e+002°)
1.25225022502250e+008	(1.74005482334660e+001dB,1.77178720962388e+002°)
1.25262526252625e+008	(1.74005492388994e+001dB,1.77177541695581e+002°)
1.25300030003000e+008	(1.74005502444002e+001dB,1.77176362530574e+002°)
1.25337533753375e+008	(1.74005512500053e+001dB,1.77175183467287e+002°)
1.25375037503750e+008	(1.74005522556504e+001dB,1.77174004505586e+002°)
1.25412541254125e+008	(1.74005532614264e+001dB,1.77172825645448e+002°)
1.25450045004500e+008	(1.74005542672441e+001dB,1.77171646886729e+002°)
1.25487548754875e+008	(1.74005552731859e+001dB,1.77170468229370e+002°)
1.25525052505250e+008	(1.74005562792161e+001dB,1.77169289673281e+002°)
1.25562556255625e+008	(1.74005572852991e+001dB,1.77168111218349e+002°)
1.25600060006001e+008	(1.74005582914828e+001dB,1.77166932864494e+002°)
1.25637563756376e+008	(1.74005592977692e+001dB,1.77165754611660e+002°)
1.25675067506751e+008	(1.74005603041154e+001dB,1.77164576459708e+002°)
1.25712571257126e+008	(1.74005613105722e+001dB,1.77163398408587e+002°)
1.25750075007501e+008	(1.74005623171040e+001dB,1.77162220458176e+002°)
1.25787578757876e+008	(1.74005633237244e+001dB,1.77161042608427e+002°)
1.25825082508251e+008	(1.74005643304085e+001dB,1.77159864859207e+002°)
1.25862586258626e+008	(1.74005653372208e+001dB,1.77158687210466e+002°)
1.25900090009001e+008	(1.74005663440895e+001dB,1.77157509662090e+002°)
1.25937593759376e+008	(1.74005673510670e+001dB,1.77156332214008e+002°)
1.25975097509751e+008	(1.74005683581230e+001dB,1.77155154866115e+002°)
1.26012601260126e+008	(1.74005693652933e+001dB,1.77153977618345e+002°)
1.26050105010501e+008	(1.74005703725080e+001dB,1.77152800470579e+002°)
1.26087608760876e+008	(1.74005713798515e+001dB,1.77151623422756e+002°)
1.26125112511251e+008	(1.74005723872664e+001dB,1.77150446474786e+002°)
1.26162616261626e+008	(1.74005733947767e+001dB,1.77149269626567e+002°)
1.26200120012001e+008	(1.74005744023813e+001dB,1.77148092878023e+002°)
1.26237623762376e+008	(1.74005754100730e+001dB,1.77146916229078e+002°)
1.26275127512751e+008	(1.74005764178298e+001dB,1.77145739679603e+002°)
1.26312631263126e+008	(1.74005774256862e+001dB,1.77144563229544e+002°)
1.26350135013501e+008	(1.74005784336446e+001dB,1.77143386878816e+002°)
1.26387638763876e+008	(1.74005794417020e+001dB,1.77142210627325e+002°)
1.26425142514251e+008	(1.74005804498394e+001dB,1.77141034474984e+002°)
1.26462646264626e+008	(1.74005814580830e+001dB,1.77139858421705e+002°)
1.26500150015001e+008	(1.74005824664082e+001dB,1.77138682467404e+002°)
1.26537653765376e+008	(1.74005834748121e+001dB,1.77137506611981e+002°)
1.26575157515751e+008	(1.74005844833310e+001dB,1.77136330855372e+002°)
1.26612661266126e+008	(1.74005854919469e+001dB,1.77135155197496e+002°)
1.26650165016501e+008	(1.74005865006176e+001dB,1.77133979638223e+002°)
1.26687668766876e+008	(1.74005875093969e+001dB,1.77132804177501e+002°)
1.26725172517251e+008	(1.74005885182954e+001dB,1.77131628815253e+002°)
1.26762676267627e+008	(1.74005895272832e+001dB,1.77130453551357e+002°)
1.26800180018002e+008	(1.74005905363391e+001dB,1.77129278385762e+002°)
1.26837683768377e+008	(1.74005915454923e+001dB,1.77128103318362e+002°)
1.26875187518752e+008	(1.74005925547702e+001dB,1.77126928349106e+002°)
1.26912691269127e+008	(1.74005935641133e+001dB,1.77125753477842e+002°)
1.26950195019502e+008	(1.74005945735577e+001dB,1.77124578704537e+002°)
1.26987698769877e+008	(1.74005955830980e+001dB,1.77123404029098e+002°)
1.27025202520252e+008	(1.74005965927348e+001dB,1.77122229451436e+002°)
1.27062706270627e+008	(1.74005976024902e+001dB,1.77121054971464e+002°)
1.27100210021002e+008	(1.74005986122907e+001dB,1.77119880589076e+002°)
1.27137713771377e+008	(1.74005996222099e+001dB,1.77118706304236e+002°)
1.27175217521752e+008	(1.74006006322332e+001dB,1.77117532116811e+002°)
1.27212721272127e+008	(1.74006016423788e+001dB,1.77116358026757e+002°)
1.27250225022502e+008	(1.74006026525726e+001dB,1.77115184033941e+002°)
1.27287728772877e+008	(1.74006036628854e+001dB,1.77114010138328e+002°)
1.27325232523252e+008	(1.74006046733086e+001dB,1.77112836339815e+002°)
1.27362736273627e+008	(1.74006056838097e+001dB,1.77111662638310e+002°)
1.27400240024002e+008	(1.74006066944314e+001dB,1.77110489033738e+002°)
1.27437743774377e+008	(1.74006077051261e+001dB,1.77109315526009e+002°)
1.27475247524752e+008	(1.74006087159393e+001dB,1.77108142115038e+002°)
1.27512751275127e+008	(1.74006097268285e+001dB,1.77106968800736e+002°)
1.27550255025502e+008	(1.74006107378280e+001dB,1.77105795583031e+002°)
1.27587758775877e+008	(1.74006117488921e+001dB,1.77104622461828e+002°)
1.27625262526252e+008	(1.74006127601269e+001dB,1.77103449437075e+002°)
1.27662766276627e+008	(1.74006137714036e+001dB,1.77102276508651e+002°)
1.27700270027002e+008	(1.74006147827970e+001dB,1.77101103676486e+002°)
1.27737773777377e+008	(1.74006157943014e+001dB,1.77099930940505e+002°)
1.27775277527752e+008	(1.74006168058916e+001dB,1.77098758300601e+002°)
1.27812781278127e+008	(1.74006178175776e+001dB,1.77097585756721e+002°)
1.27850285028502e+008	(1.74006188293667e+001dB,1.77096413308766e+002°)
1.27887788778878e+008	(1.74006198412898e+001dB,1.77095240956654e+002°)
1.27925292529253e+008	(1.74006208532644e+001dB,1.77094068700297e+002°)
1.27962796279628e+008	(1.74006218653887e+001dB,1.77092896539616e+002°)
1.28000300030003e+008	(1.74006228775942e+001dB,1.77091724474550e+002°)
1.28037803780378e+008	(1.74006238898724e+001dB,1.77090552504982e+002°)
1.28075307530753e+008	(1.74006249022832e+001dB,1.77089380630860e+002°)
1.28112811281128e+008	(1.74006259148233e+001dB,1.77088208852083e+002°)
1.28150315031503e+008	(1.74006269273927e+001dB,1.77087037168550e+002°)
1.28187818781878e+008	(1.74006279401343e+001dB,1.77085865580240e+002°)
1.28225322532253e+008	(1.74006289529146e+001dB,1.77084694086994e+002°)
1.28262826282628e+008	(1.74006299658415e+001dB,1.77083522688787e+002°)
1.28300330033003e+008	(1.74006309788609e+001dB,1.77082351385522e+002°)
1.28337833783378e+008	(1.74006319920031e+001dB,1.77081180177120e+002°)
1.28375337533753e+008	(1.74006330052271e+001dB,1.77080009063467e+002°)
1.28412841284128e+008	(1.74006340185500e+001dB,1.77078838044526e+002°)
1.28450345034503e+008	(1.74006350319891e+001dB,1.77077667120201e+002°)
1.28487848784878e+008	(1.74006360455357e+001dB,1.77076496290401e+002°)
1.28525352535253e+008	(1.74006370591647e+001dB,1.77075325555045e+002°)
1.28562856285628e+008	(1.74006380729386e+001dB,1.77074154914079e+002°)
1.28600360036003e+008	(1.74006390867960e+001dB,1.77072984367386e+002°)
1.28637863786378e+008	(1.74006401007615e+001dB,1.77071813914905e+002°)
1.28675367536753e+008	(1.74006411148408e+001dB,1.77070643556557e+002°)
1.28712871287128e+008	(1.74006421290006e+001dB,1.77069473292233e+002°)
1.28750375037503e+008	(1.74006431432799e+001dB,1.77068303121884e+002°)
1.28787878787878e+008	(1.74006441576711e+001dB,1.77067133045435e+002°)
1.28825382538253e+008	(1.74006451721867e+001dB,1.77065963062772e+002°)
1.28862886288628e+008	(1.74006461867553e+001dB,1.77064793173819e+002°)
1.28900390039003e+008	(1.74006472014785e+001dB,1.77063623378541e+002°)
1.28937893789378e+008	(1.74006482162929e+001dB,1.77062453676809e+002°)
1.28975397539753e+008	(1.74006492311961e+001dB,1.77061284068555e+002°)
1.29012901290128e+008	(1.74006502462347e+001dB,1.77060114553712e+002°)
1.29050405040504e+008	(1.74006512613644e+001dB,1.77058945132188e+002°)
1.29087908790879e+008	(1.74006522766049e+001dB,1.77057775803913e+002°)
1.29125412541254e+008	(1.74006532919589e+001dB,1.77056606568800e+002°)
1.29162916291629e+008	(1.74006543074258e+001dB,1.77055437426768e+002°)
1.29200420042004e+008	(1.74006553229869e+001dB,1.77054268377738e+002°)
1.29237923792379e+008	(1.74006563386806e+001dB,1.77053099421633e+002°)
1.29275427542754e+008	(1.74006573544800e+001dB,1.77051930558372e+002°)
1.29312931293129e+008	(1.74006583703792e+001dB,1.77050761787895e+002°)
1.29350435043504e+008	(1.74006593863807e+001dB,1.77049593110090e+002°)
1.29387938793879e+008	(1.74006604025115e+001dB,1.77048424524901e+002°)
1.29425442544254e+008	(1.74006614187334e+001dB,1.77047256032222e+002°)
1.29462946294629e+008	(1.74006624350710e+001dB,1.77046087632004e+002°)
1.29500450045004e+008	(1.74006634515198e+001dB,1.77044919324164e+002°)
1.29537953795379e+008	(1.74006644680796e+001dB,1.77043751108603e+002°)
1.29575457545754e+008	(1.74006654847523e+001dB,1.77042582985270e+002°)
1.29612961296129e+008	(1.74006665015274e+001dB,1.77041414954056e+002°)
1.29650465046504e+008	(1.74006675184365e+001dB,1.77040247014913e+002°)
1.29687968796879e+008	(1.74006685354458e+001dB,1.77039079167746e+002°)
1.29725472547254e+008	(1.74006695525566e+001dB,1.77037911412483e+002°)
1.29762976297629e+008	(1.74006705697809e+001dB,1.77036743749027e+002°)
1.29800480048004e+008	(1.74006715871215e+001dB,1.77035576177325e+002°)
1.29837983798379e+008	(1.74006726045898e+001dB,1.77034408697294e+002°)
1.29875487548754e+008	(1.74006736221569e+001dB,1.77033241308847e+002°)
1.29912991299129e+008	(1.74006746398365e+001dB,1.77032074011913e+002°)
1.29950495049504e+008	(1.74006756575852e+001dB,1.77030906806388e+002°)
1.29987998799879e+008	(1.74006766755454e+001dB,1.77029739692250e+002°)
1.30025502550254e+008	(1.74006776935715e+001dB,1.77028572669384e+002°)
1.30063006300629e+008	(1.74006787117058e+001dB,1.77027405737705e+002°)
1.30100510051004e+008	(1.74006797299382e+001dB,1.77026238897150e+002°)
1.30138013801379e+008	(1.74006807483004e+001dB,1.77025072147655e+002°)
1.30175517551754e+008	(1.74006817667920e+001dB,1.77023905489119e+002°)
1.30213021302130e+008	(1.74006827853538e+001dB,1.77022738921461e+002°)
1.30250525052505e+008	(1.74006838040973e+001dB,1.77021572444639e+002°)
1.30288028802880e+008	(1.74006848229011e+001dB,1.77020406058543e+002°)
1.30325532553255e+008	(1.74006858418417e+001dB,1.77019239763107e+002°)
1.30363036303630e+008	(1.74006868609215e+001dB,1.77018073558278e+002°)
1.30400540054005e+008	(1.74006878800723e+001dB,1.77016907443922e+002°)
1.30438043804380e+008	(1.74006888993542e+001dB,1.77015741420013e+002°)
1.30475547554755e+008	(1.74006899187714e+001dB,1.77014575486466e+002°)
1.30513051305130e+008	(1.74006909382951e+001dB,1.77013409643181e+002°)
1.30550555055505e+008	(1.74006919579360e+001dB,1.77012243890114e+002°)
1.30588058805880e+008	(1.74006929776920e+001dB,1.77011078227155e+002°)
1.30625562556255e+008	(1.74006939975698e+001dB,1.77009912654268e+002°)
1.30663066306630e+008	(1.74006950175375e+001dB,1.77008747171323e+002°)
1.30700570057005e+008	(1.74006960376432e+001dB,1.77007581778284e+002°)
1.30738073807380e+008	(1.74006970578700e+001dB,1.77006416475084e+002°)
1.30775577557755e+008	(1.74006980782120e+001dB,1.77005251261611e+002°)
1.30813081308130e+008	(1.74006990986687e+001dB,1.77004086137824e+002°)
1.30850585058505e+008	(1.74007001192339e+001dB,1.77002921103609e+002°)
1.30888088808880e+008	(1.74007011399478e+001dB,1.77001756158938e+002°)
1.30925592559255e+008	(1.74007021607420e+001dB,1.77000591303690e+002°)
1.30963096309630e+008	(1.74007031817032e+001dB,1.76999426537826e+002°)
1.31000600060005e+008	(1.74007042027429e+001dB,1.76998261861250e+002°)
1.31038103810380e+008	(1.74007052239203e+001dB,1.76997097273889e+002°)
1.31075607560755e+008	(1.74007062451862e+001dB,1.76995932775662e+002°)
1.31113111311130e+008	(1.74007072666138e+001dB,1.76994768366518e+002°)
1.31150615061505e+008	(1.74007082881616e+001dB,1.76993604046372e+002°)
1.31188118811880e+008	(1.74007093098082e+001dB,1.76992439815129e+002°)
1.31225622562255e+008	(1.74007103315728e+001dB,1.76991275672723e+002°)
1.31263126312630e+008	(1.74007113534786e+001dB,1.76990111619099e+002°)
1.31300630063005e+008	(1.74007123754859e+001dB,1.76988947654166e+002°)
1.31338133813380e+008	(1.74007133976292e+001dB,1.76987783777863e+002°)
1.31375637563756e+008	(1.74007144198759e+001dB,1.76986619990089e+002°)
1.31413141314131e+008	(1.74007154422846e+001dB,1.76985456290799e+002°)
1.31450645064506e+008	(1.74007164647680e+001dB,1.76984292679894e+002°)
1.31488148814881e+008	(1.74007174873983e+001dB,1.76983129157323e+002°)
1.31525652565256e+008	(1.74007185101298e+001dB,1.76981965722990e+002°)
1.31563156315631e+008	(1.74007195330053e+001dB,1.76980802376836e+002°)
1.31600660066006e+008	(1.74007205560066e+001dB,1.76979639118786e+002°)
1.31638163816381e+008	(1.74007215791196e+001dB,1.76978475948749e+002°)
1.31675667566756e+008	(1.74007226023435e+001dB,1.76977312866688e+002°)
1.31713171317131e+008	(1.74007236257339e+001dB,1.76976149872512e+002°)
1.31750675067506e+008	(1.74007246491889e+001dB,1.76974986966111e+002°)
1.31788178817881e+008	(1.74007256728013e+001dB,1.76973824147454e+002°)
1.31825682568256e+008	(1.74007266965300e+001dB,1.76972661416467e+002°)
1.31863186318631e+008	(1.74007277203914e+001dB,1.76971498773054e+002°)
1.31900690069006e+008	(1.74007287443656e+001dB,1.76970336217161e+002°)
1.31938193819381e+008	(1.74007297684694e+001dB,1.76969173748702e+002°)
1.31975697569756e+008	(1.74007307926810e+001dB,1.76968011367595e+002°)
1.32013201320131e+008	(1.74007318170445e+001dB,1.76966849073810e+002°)
1.32050705070506e+008	(1.74007328415160e+001dB,1.76965686867227e+002°)
1.32088208820881e+008	(1.74007338661166e+001dB,1.76964524747807e+002°)
1.32125712571256e+008	(1.74007348908766e+001dB,1.76963362715473e+002°)
1.32163216321631e+008	(1.74007359157345e+001dB,1.76962200770122e+002°)
1.32200720072006e+008	(1.74007369406916e+001dB,1.76961038911693e+002°)
1.32238223822381e+008	(1.74007379658138e+001dB,1.76959877140140e+002°)
1.32275727572756e+008	(1.74007389910133e+001dB,1.76958715455362e+002°)
1.32313231323131e+008	(1.74007400163817e+001dB,1.76957553857293e+002°)
1.32350735073506e+008	(1.74007410418736e+001dB,1.76956392345878e+002°)
1.32388238823881e+008	(1.74007420674920e+001dB,1.76955230921029e+002°)
1.32425742574256e+008	(1.74007430932364e+001dB,1.76954069582674e+002°)
1.32463246324631e+008	(1.74007441190990e+001dB,1.76952908330750e+002°)
1.32500750075006e+008	(1.74007451450925e+001dB,1.76951747165163e+002°)
1.32538253825382e+008	(1.74007461712455e+001dB,1.76950586085882e+002°)
1.32575757575757e+008	(1.74007471974573e+001dB,1.76949425092788e+002°)
1.32613261326132e+008	(1.74007482238620e+001dB,1.76948264185844e+002°)
1.32650765076507e+008	(1.74007492503627e+001dB,1.76947103364961e+002°)
1.32688268826882e+008	(1.74007502770025e+001dB,1.76945942630077e+002°)
1.32725772577257e+008	(1.74007513037507e+001dB,1.76944781981100e+002°)
1.32763276327632e+008	(1.74007523306477e+001dB,1.76943621417997e+002°)
1.32800780078007e+008	(1.74007533576879e+001dB,1.76942460940678e+002°)
1.32838283828382e+008	(1.74007543848187e+001dB,1.76941300549040e+002°)
1.32875787578757e+008	(1.74007554121210e+001dB,1.76940140243081e+002°)
1.32913291329132e+008	(1.74007564395275e+001dB,1.76938980022659e+002°)
1.32950795079507e+008	(1.74007574670576e+001dB,1.76937819887740e+002°)
1.32988298829882e+008	(1.74007584947359e+001dB,1.76936659838257e+002°)
1.33025802580257e+008	(1.74007595225490e+001dB,1.76935499874118e+002°)
1.33063306330632e+008	(1.74007605504706e+001dB,1.76934339995263e+002°)
1.33100810081007e+008	(1.74007615785314e+001dB,1.76933180201625e+002°)
1.33138313831382e+008	(1.74007626067359e+001dB,1.76932020493137e+002°)
1.33175817581757e+008	(1.74007636350441e+001dB,1.76930860869713e+002°)
1.33213321332132e+008	(1.74007646635003e+001dB,1.76929701331295e+002°)
1.33250825082507e+008	(1.74007656920852e+001dB,1.76928541877814e+002°)
1.33288328832882e+008	(1.74007667207952e+001dB,1.76927382509185e+002°)
1.33325832583257e+008	(1.74007677496723e+001dB,1.76926223225368e+002°)
1.33363336333632e+008	(1.74007687786511e+001dB,1.76925064026262e+002°)
1.33400840084007e+008	(1.74007698077630e+001dB,1.76923904911800e+002°)
1.33438343834382e+008	(1.74007708370096e+001dB,1.76922745881926e+002°)
1.33475847584757e+008	(1.74007718664013e+001dB,1.76921586936570e+002°)
1.33513351335132e+008	(1.74007728959174e+001dB,1.76920428075659e+002°)
1.33550855085507e+008	(1.74007739255565e+001dB,1.76919269299111e+002°)
1.33588358835882e+008	(1.74007749553413e+001dB,1.76918110606879e+002°)
1.33625862586257e+008	(1.74007759852601e+001dB,1.76916951998876e+002°)
1.33663366336632e+008	(1.74007770153147e+001dB,1.76915793475040e+002°)
1.33700870087008e+008	(1.74007780454866e+001dB,1.76914635035296e+002°)
1.33738373837383e+008	(1.74007790758037e+001dB,1.76913476679577e+002°)
1.33775877587758e+008	(1.74007801062452e+001dB,1.76912318407800e+002°)
1.33813381338133e+008	(1.74007811368388e+001dB,1.76911160219934e+002°)
1.33850885088508e+008	(1.74007821675546e+001dB,1.76910002115885e+002°)
1.33888388838883e+008	(1.74007831983854e+001dB,1.76908844095569e+002°)
1.33925892589258e+008	(1.74007842293717e+001dB,1.76907686158950e+002°)
1.33963396339633e+008	(1.74007852605071e+001dB,1.76906528305937e+002°)
1.34000900090008e+008	(1.74007862917803e+001dB,1.76905370536487e+002°)
1.34038403840383e+008	(1.74007873231674e+001dB,1.76904212850480e+002°)
1.34075907590758e+008	(1.74007883547060e+001dB,1.76903055247909e+002°)
1.34113411341133e+008	(1.74007893863754e+001dB,1.76901897728664e+002°)
1.34150915091508e+008	(1.74007904181617e+001dB,1.76900740292684e+002°)
1.34188418841883e+008	(1.74007914501195e+001dB,1.76899582939915e+002°)
1.34225922592258e+008	(1.74007924821760e+001dB,1.76898425670260e+002°)
1.34263426342633e+008	(1.74007935144008e+001dB,1.76897268483703e+002°)
1.34300930093008e+008	(1.74007945467572e+001dB,1.76896111380120e+002°)
1.34338433843383e+008	(1.74007955792373e+001dB,1.76894954359471e+002°)
1.34375937593758e+008	(1.74007966118287e+001dB,1.76893797421665e+002°)
1.34413441344133e+008	(1.74007976446090e+001dB,1.76892640566693e+002°)
1.34450945094508e+008	(1.74007986775062e+001dB,1.76891483794418e+002°)
1.34488448844883e+008	(1.74007997105614e+001dB,1.76890327104815e+002°)
1.34525952595258e+008	(1.74008007437400e+001dB,1.76889170497787e+002°)
1.34563456345633e+008	(1.74008017770342e+001dB,1.76888013973283e+002°)
1.34600960096008e+008	(1.74008028104955e+001dB,1.76886857531240e+002°)
1.34638463846383e+008	(1.74008038440985e+001dB,1.76885701171596e+002°)
1.34675967596758e+008	(1.74008048777904e+001dB,1.76884544894235e+002°)
1.34713471347133e+008	(1.74008059116931e+001dB,1.76883388699179e+002°)
1.34750975097508e+008	(1.74008069456925e+001dB,1.76882232586276e+002°)
1.34788478847883e+008	(1.74008079798310e+001dB,1.76881076555494e+002°)
1.34825982598259e+008	(1.74008090141399e+001dB,1.76879920606777e+002°)
1.34863486348634e+008	(1.74008100485640e+001dB,1.76878764740048e+002°)
1.34900990099009e+008	(1.74008110830987e+001dB,1.76877608955208e+002°)
1.34938493849384e+008	(1.74008121178254e+001dB,1.76876453252254e+002°)
1.34975997599759e+008	(1.74008131526652e+001dB,1.76875297631061e+002°)
1.35013501350134e+008	(1.74008141876425e+001dB,1.76874142091591e+002°)
1.35051005100509e+008	(1.74008152227813e+001dB,1.76872986633773e+002°)
1.35088508850884e+008	(1.74008162580521e+001dB,1.76871831257540e+002°)
1.35126012601259e+008	(1.74008172934743e+001dB,1.76870675962844e+002°)
1.35163516351634e+008	(1.74008183290130e+001dB,1.76869520749580e+002°)
1.35201020102009e+008	(1.74008193646838e+001dB,1.76868365617687e+002°)
1.35238523852384e+008	(1.74008204005353e+001dB,1.76867210567141e+002°)
1.35276027602759e+008	(1.74008214364991e+001dB,1.76866055597836e+002°)
1.35313531353134e+008	(1.74008224726365e+001dB,1.76864900709731e+002°)
1.35351035103509e+008	(1.74008235088887e+001dB,1.76863745902744e+002°)
1.35388538853884e+008	(1.74008245453048e+001dB,1.76862591176809e+002°)
1.35426042604259e+008	(1.74008255818649e+001dB,1.76861436531862e+002°)
1.35463546354634e+008	(1.74008266185357e+001dB,1.76860281967847e+002°)
1.35501050105009e+008	(1.74008276553854e+001dB,1.76859127484678e+002°)
