Freq.	V(vout)/V(vin)
1.25000000000000e+008	(1.73840200129659e+001dB,1.75912681905551e+002°)
1.25037503750375e+008	(1.73840048305585e+001dB,1.75911134944981e+002°)
1.25075007500750e+008	(1.73839896438295e+001dB,1.75909588099429e+002°)
1.25112511251125e+008	(1.73839744527795e+001dB,1.75908041368796e+002°)
1.25150015001500e+008	(1.73839592574096e+001dB,1.75906494752991e+002°)
1.25187518751875e+008	(1.73839440577201e+001dB,1.75904948251936e+002°)
1.25225022502250e+008	(1.73839288537115e+001dB,1.75903401865550e+002°)
1.25262526252625e+008	(1.73839136453850e+001dB,1.75901855593726e+002°)
1.25300030003000e+008	(1.73838984327405e+001dB,1.75900309436395e+002°)
1.25337533753375e+008	(1.73838832157792e+001dB,1.75898763393468e+002°)
1.25375037503750e+008	(1.73838679945014e+001dB,1.75897217464845e+002°)
1.25412541254125e+008	(1.73838527689086e+001dB,1.75895671650454e+002°)
1.25450045004500e+008	(1.73838375389996e+001dB,1.75894125950203e+002°)
1.25487548754875e+008	(1.73838223047766e+001dB,1.75892580364002e+002°)
1.25525052505250e+008	(1.73838070662397e+001dB,1.75891034891781e+002°)
1.25562556255625e+008	(1.73837918233895e+001dB,1.75889489533429e+002°)
1.25600060006001e+008	(1.73837765762270e+001dB,1.75887944288870e+002°)
1.25637563756376e+008	(1.73837613247522e+001dB,1.75886399158037e+002°)
1.25675067506751e+008	(1.73837460689665e+001dB,1.75884854140820e+002°)
1.25712571257126e+008	(1.73837308088693e+001dB,1.75883309237140e+002°)
1.25750075007501e+008	(1.73837155444625e+001dB,1.75881764446907e+002°)
1.25787578757876e+008	(1.73837002757463e+001dB,1.75880219770060e+002°)
1.25825082508251e+008	(1.73836850027213e+001dB,1.75878675206487e+002°)
1.25862586258626e+008	(1.73836697253876e+001dB,1.75877130756111e+002°)
1.25900090009001e+008	(1.73836544437467e+001dB,1.75875586418848e+002°)
1.25937593759376e+008	(1.73836391577989e+001dB,1.75874042194612e+002°)
1.25975097509751e+008	(1.73836238675446e+001dB,1.75872498083317e+002°)
1.26012601260126e+008	(1.73836085729847e+001dB,1.75870954084882e+002°)
1.26050105010501e+008	(1.73835932741195e+001dB,1.75869410199215e+002°)
1.26087608760876e+008	(1.73835779709499e+001dB,1.75867866426234e+002°)
1.26125112511251e+008	(1.73835626634765e+001dB,1.75866322765870e+002°)
1.26162616261626e+008	(1.73835473516999e+001dB,1.75864779218010e+002°)
1.26200120012001e+008	(1.73835320356208e+001dB,1.75863235782594e+002°)
1.26237623762376e+008	(1.73835167152398e+001dB,1.75861692459532e+002°)
1.26275127512751e+008	(1.73835013905570e+001dB,1.75860149248732e+002°)
1.26312631263126e+008	(1.73834860615738e+001dB,1.75858606150113e+002°)
1.26350135013501e+008	(1.73834707282904e+001dB,1.75857063163596e+002°)
1.26387638763876e+008	(1.73834553907077e+001dB,1.75855520289092e+002°)
1.26425142514251e+008	(1.73834400488257e+001dB,1.75853977526521e+002°)
1.26462646264626e+008	(1.73834247026456e+001dB,1.75852434875796e+002°)
1.26500150015001e+008	(1.73834093521684e+001dB,1.75850892336841e+002°)
1.26537653765376e+008	(1.73833939973938e+001dB,1.75849349909556e+002°)
1.26575157515751e+008	(1.73833786383231e+001dB,1.75847807593879e+002°)
1.26612661266126e+008	(1.73833632749561e+001dB,1.75846265389720e+002°)
1.26650165016501e+008	(1.73833479072946e+001dB,1.75844723296983e+002°)
1.26687668766876e+008	(1.73833325353383e+001dB,1.75843181315603e+002°)
1.26725172517251e+008	(1.73833171590880e+001dB,1.75841639445486e+002°)
1.26762676267627e+008	(1.73833017785446e+001dB,1.75840097686538e+002°)
1.26800180018002e+008	(1.73832863937088e+001dB,1.75838556038711e+002°)
1.26837683768377e+008	(1.73832710045803e+001dB,1.75837014501896e+002°)
1.26875187518752e+008	(1.73832556111611e+001dB,1.75835473076022e+002°)
1.26912691269127e+008	(1.73832402134509e+001dB,1.75833931760988e+002°)
1.26950195019502e+008	(1.73832248114503e+001dB,1.75832390556733e+002°)
1.26987698769877e+008	(1.73832094051605e+001dB,1.75830849463169e+002°)
1.27025202520252e+008	(1.73831939945815e+001dB,1.75829308480211e+002°)
1.27062706270627e+008	(1.73831785797145e+001dB,1.75827767607779e+002°)
1.27100210021002e+008	(1.73831631605594e+001dB,1.75826226845780e+002°)
1.27137713771377e+008	(1.73831477371176e+001dB,1.75824686194159e+002°)
1.27175217521752e+008	(1.73831323093892e+001dB,1.75823145652804e+002°)
1.27212721272127e+008	(1.73831168773750e+001dB,1.75821605221654e+002°)
1.27250225022502e+008	(1.73831014410751e+001dB,1.75820064900612e+002°)
1.27287728772877e+008	(1.73830860004915e+001dB,1.75818524689616e+002°)
1.27325232523252e+008	(1.73830705556234e+001dB,1.75816984588574e+002°)
1.27362736273627e+008	(1.73830551064720e+001dB,1.75815444597404e+002°)
1.27400240024002e+008	(1.73830396530380e+001dB,1.75813904716024e+002°)
1.27437743774377e+008	(1.73830241953217e+001dB,1.75812364944361e+002°)
1.27475247524752e+008	(1.73830087333237e+001dB,1.75810825282318e+002°)
1.27512751275127e+008	(1.73829932670453e+001dB,1.75809285729829e+002°)
1.27550255025502e+008	(1.73829777964869e+001dB,1.75807746286802e+002°)
1.27587758775877e+008	(1.73829623216478e+001dB,1.75806206953171e+002°)
1.27625262526252e+008	(1.73829468425300e+001dB,1.75804667728847e+002°)
1.27662766276627e+008	(1.73829313591341e+001dB,1.75803128613755e+002°)
1.27700270027002e+008	(1.73829158714599e+001dB,1.75801589607803e+002°)
1.27737773777377e+008	(1.73829003795090e+001dB,1.75800050710925e+002°)
1.27775277527752e+008	(1.73828848832812e+001dB,1.75798511923025e+002°)
1.27812781278127e+008	(1.73828693827775e+001dB,1.75796973244044e+002°)
1.27850285028502e+008	(1.73828538779982e+001dB,1.75795434673883e+002°)
1.27887788778878e+008	(1.73828383689449e+001dB,1.75793896212467e+002°)
1.27925292529253e+008	(1.73828228556169e+001dB,1.75792357859726e+002°)
1.27962796279628e+008	(1.73828073380154e+001dB,1.75790819615549e+002°)
1.28000300030003e+008	(1.73827918161411e+001dB,1.75789281479915e+002°)
1.28037803780378e+008	(1.73827762899945e+001dB,1.75787743452698e+002°)
1.28075307530753e+008	(1.73827607595762e+001dB,1.75786205533839e+002°)
1.28112811281128e+008	(1.73827452248867e+001dB,1.75784667723234e+002°)
1.28150315031503e+008	(1.73827296859272e+001dB,1.75783130020828e+002°)
1.28187818781878e+008	(1.73827141426973e+001dB,1.75781592426541e+002°)
1.28225322532253e+008	(1.73826985951989e+001dB,1.75780054940284e+002°)
1.28262826282628e+008	(1.73826830434311e+001dB,1.75778517561978e+002°)
1.28300330033003e+008	(1.73826674873955e+001dB,1.75776980291553e+002°)
1.28337833783378e+008	(1.73826519270926e+001dB,1.75775443128927e+002°)
1.28375337533753e+008	(1.73826363625229e+001dB,1.75773906074008e+002°)
1.28412841284128e+008	(1.73826207936871e+001dB,1.75772369126743e+002°)
1.28450345034503e+008	(1.73826052205855e+001dB,1.75770832287039e+002°)
1.28487848784878e+008	(1.73825896432192e+001dB,1.75769295554814e+002°)
1.28525352535253e+008	(1.73825740615885e+001dB,1.75767758929998e+002°)
1.28562856285628e+008	(1.73825584756943e+001dB,1.75766222412512e+002°)
1.28600360036003e+008	(1.73825428855370e+001dB,1.75764686002270e+002°)
1.28637863786378e+008	(1.73825272911172e+001dB,1.75763149699213e+002°)
1.28675367536753e+008	(1.73825116924351e+001dB,1.75761613503246e+002°)
1.28712871287128e+008	(1.73824960894918e+001dB,1.75760077414285e+002°)
1.28750375037503e+008	(1.73824804822880e+001dB,1.75758541432265e+002°)
1.28787878787878e+008	(1.73824648708240e+001dB,1.75757005557125e+002°)
1.28825382538253e+008	(1.73824492551009e+001dB,1.75755469788751e+002°)
1.28862886288628e+008	(1.73824336351184e+001dB,1.75753934127085e+002°)
1.28900390039003e+008	(1.73824180108780e+001dB,1.75752398572064e+002°)
1.28937893789378e+008	(1.73824023823800e+001dB,1.75750863123583e+002°)
1.28975397539753e+008	(1.73823867496250e+001dB,1.75749327781585e+002°)
1.29012901290128e+008	(1.73823711126133e+001dB,1.75747792545977e+002°)
1.29050405040504e+008	(1.73823554713463e+001dB,1.75746257416699e+002°)
1.29087908790879e+008	(1.73823398258237e+001dB,1.75744722393668e+002°)
1.29125412541254e+008	(1.73823241760466e+001dB,1.75743187476803e+002°)
1.29162916291629e+008	(1.73823085220154e+001dB,1.75741652666027e+002°)
1.29200420042004e+008	(1.73822928637311e+001dB,1.75740117961270e+002°)
1.29237923792379e+008	(1.73822772011937e+001dB,1.75738583362444e+002°)
1.29275427542754e+008	(1.73822615344044e+001dB,1.75737048869484e+002°)
1.29312931293129e+008	(1.73822458633637e+001dB,1.75735514482322e+002°)
1.29350435043504e+008	(1.73822301880715e+001dB,1.75733980200868e+002°)
1.29387938793879e+008	(1.73822145085295e+001dB,1.75732446025043e+002°)
1.29425442544254e+008	(1.73821988247375e+001dB,1.75730911954773e+002°)
1.29462946294629e+008	(1.73821831366964e+001dB,1.75729377989989e+002°)
1.29500450045004e+008	(1.73821674444069e+001dB,1.75727844130619e+002°)
1.29537953795379e+008	(1.73821517478694e+001dB,1.75726310376574e+002°)
1.29575457545754e+008	(1.73821360470843e+001dB,1.75724776727793e+002°)
1.29612961296129e+008	(1.73821203420531e+001dB,1.75723243184182e+002°)
1.29650465046504e+008	(1.73821046327754e+001dB,1.75721709745686e+002°)
1.29687968796879e+008	(1.73820889192519e+001dB,1.75720176412210e+002°)
1.29725472547254e+008	(1.73820732014841e+001dB,1.75718643183702e+002°)
1.29762976297629e+008	(1.73820574794720e+001dB,1.75717110060064e+002°)
1.29800480048004e+008	(1.73820417532159e+001dB,1.75715577041233e+002°)
1.29837983798379e+008	(1.73820260227172e+001dB,1.75714044127131e+002°)
1.29875487548754e+008	(1.73820102879757e+001dB,1.75712511317685e+002°)
1.29912991299129e+008	(1.73819945489919e+001dB,1.75710978612826e+002°)
1.29950495049504e+008	(1.73819788057672e+001dB,1.75709446012469e+002°)
1.29987998799879e+008	(1.73819630583024e+001dB,1.75707913516531e+002°)
1.30025502550254e+008	(1.73819473065969e+001dB,1.75706381124965e+002°)
1.30063006300629e+008	(1.73819315506515e+001dB,1.75704848837670e+002°)
1.30100510051004e+008	(1.73819157904681e+001dB,1.75703316654590e+002°)
1.30138013801379e+008	(1.73819000260463e+001dB,1.75701784575648e+002°)
1.30175517551754e+008	(1.73818842573867e+001dB,1.75700252600754e+002°)
1.30213021302130e+008	(1.73818684844898e+001dB,1.75698720729856e+002°)
1.30250525052505e+008	(1.73818527073569e+001dB,1.75697188962861e+002°)
1.30288028802880e+008	(1.73818369259879e+001dB,1.75695657299708e+002°)
1.30325532553255e+008	(1.73818211403838e+001dB,1.75694125740321e+002°)
1.30363036303630e+008	(1.73818053505450e+001dB,1.75692594284631e+002°)
1.30400540054005e+008	(1.73817895564724e+001dB,1.75691062932545e+002°)
1.30438043804380e+008	(1.73817737581660e+001dB,1.75689531684010e+002°)
1.30475547554755e+008	(1.73817579556270e+001dB,1.75688000538945e+002°)
1.30513051305130e+008	(1.73817421488557e+001dB,1.75686469497267e+002°)
1.30550555055505e+008	(1.73817263378528e+001dB,1.75684938558924e+002°)
1.30588058805880e+008	(1.73817105226190e+001dB,1.75683407723824e+002°)
1.30625562556255e+008	(1.73816947031545e+001dB,1.75681876991912e+002°)
1.30663066306630e+008	(1.73816788794597e+001dB,1.75680346363093e+002°)
1.30700570057005e+008	(1.73816630515367e+001dB,1.75678815837306e+002°)
1.30738073807380e+008	(1.73816472193845e+001dB,1.75677285414485e+002°)
1.30775577557755e+008	(1.73816313830043e+001dB,1.75675755094540e+002°)
1.30813081308130e+008	(1.73816155423970e+001dB,1.75674224877417e+002°)
1.30850585058505e+008	(1.73815996975626e+001dB,1.75672694763027e+002°)
1.30888088808880e+008	(1.73815838485021e+001dB,1.75671164751316e+002°)
1.30925592559255e+008	(1.73815679952157e+001dB,1.75669634842195e+002°)
1.30963096309630e+008	(1.73815521377046e+001dB,1.75668105035595e+002°)
1.31000600060005e+008	(1.73815362759688e+001dB,1.75666575331452e+002°)
1.31038103810380e+008	(1.73815204100092e+001dB,1.75665045729682e+002°)
1.31075607560755e+008	(1.73815045398262e+001dB,1.75663516230225e+002°)
1.31113111311130e+008	(1.73814886654211e+001dB,1.75661986832998e+002°)
1.31150615061505e+008	(1.73814727867935e+001dB,1.75660457537944e+002°)
1.31188118811880e+008	(1.73814569039444e+001dB,1.75658928344973e+002°)
1.31225622562255e+008	(1.73814410168749e+001dB,1.75657399254019e+002°)
1.31263126312630e+008	(1.73814251255847e+001dB,1.75655870265019e+002°)
1.31300630063005e+008	(1.73814092300753e+001dB,1.75654341377896e+002°)
1.31338133813380e+008	(1.73813933303465e+001dB,1.75652812592583e+002°)
1.31375637563756e+008	(1.73813774263992e+001dB,1.75651283909004e+002°)
1.31413141314131e+008	(1.73813615182348e+001dB,1.75649755327078e+002°)
1.31450645064506e+008	(1.73813456058521e+001dB,1.75648226846750e+002°)
1.31488148814881e+008	(1.73813296892531e+001dB,1.75646698467947e+002°)
1.31525652565256e+008	(1.73813137684380e+001dB,1.75645170190589e+002°)
1.31563156315631e+008	(1.73812978434079e+001dB,1.75643642014610e+002°)
1.31600660066006e+008	(1.73812819141621e+001dB,1.75642113939940e+002°)
1.31638163816381e+008	(1.73812659807026e+001dB,1.75640585966492e+002°)
1.31675667566756e+008	(1.73812500430297e+001dB,1.75639058094241e+002°)
1.31713171317131e+008	(1.73812341011432e+001dB,1.75637530323075e+002°)
1.31750675067506e+008	(1.73812181550439e+001dB,1.75636002652927e+002°)
1.31788178817881e+008	(1.73812022047335e+001dB,1.75634475083734e+002°)
1.31825682568256e+008	(1.73811862502112e+001dB,1.75632947615433e+002°)
1.31863186318631e+008	(1.73811702914782e+001dB,1.75631420247943e+002°)
1.31900690069006e+008	(1.73811543285354e+001dB,1.75629892981194e+002°)
1.31938193819381e+008	(1.73811383613829e+001dB,1.75628365815122e+002°)
1.31975697569756e+008	(1.73811223900217e+001dB,1.75626838749649e+002°)
1.32013201320131e+008	(1.73811064144521e+001dB,1.75625311784719e+002°)
1.32050705070506e+008	(1.73810904346748e+001dB,1.75623784920244e+002°)
1.32088208820881e+008	(1.73810744506899e+001dB,1.75622258156175e+002°)
1.32125712571256e+008	(1.73810584624989e+001dB,1.75620731492432e+002°)
1.32163216321631e+008	(1.73810424701018e+001dB,1.75619204928933e+002°)
1.32200720072006e+008	(1.73810264734994e+001dB,1.75617678465623e+002°)
1.32238223822381e+008	(1.73810104726921e+001dB,1.75616152102433e+002°)
1.32275727572756e+008	(1.73809944676811e+001dB,1.75614625839297e+002°)
1.32313231323131e+008	(1.73809784584659e+001dB,1.75613099676123e+002°)
1.32350735073506e+008	(1.73809624450479e+001dB,1.75611573612866e+002°)
1.32388238823881e+008	(1.73809464274278e+001dB,1.75610047649454e+002°)
1.32425742574256e+008	(1.73809304056055e+001dB,1.75608521785806e+002°)
1.32463246324631e+008	(1.73809143795821e+001dB,1.75606996021867e+002°)
1.32500750075006e+008	(1.73808983493585e+001dB,1.75605470357545e+002°)
1.32538253825382e+008	(1.73808823149343e+001dB,1.75603944792801e+002°)
1.32575757575757e+008	(1.73808662763109e+001dB,1.75602419327553e+002°)
1.32613261326132e+008	(1.73808502334886e+001dB,1.75600893961726e+002°)
1.32650765076507e+008	(1.73808341864687e+001dB,1.75599368695260e+002°)
1.32688268826882e+008	(1.73808181352504e+001dB,1.75597843528084e+002°)
1.32725772577257e+008	(1.73808020798349e+001dB,1.75596318460121e+002°)
1.32763276327632e+008	(1.73807860202234e+001dB,1.75594793491322e+002°)
1.32800780078007e+008	(1.73807699564158e+001dB,1.75593268621612e+002°)
1.32838283828382e+008	(1.73807538884128e+001dB,1.75591743850902e+002°)
1.32875787578757e+008	(1.73807378162155e+001dB,1.75590219179162e+002°)
1.32913291329132e+008	(1.73807217398238e+001dB,1.75588694606290e+002°)
1.32950795079507e+008	(1.73807056592388e+001dB,1.75587170132233e+002°)
1.32988298829882e+008	(1.73806895744604e+001dB,1.75585645756921e+002°)
1.33025802580257e+008	(1.73806734854900e+001dB,1.75584121480282e+002°)
1.33063306330632e+008	(1.73806573923278e+001dB,1.75582597302256e+002°)
1.33100810081007e+008	(1.73806412949744e+001dB,1.75581073222770e+002°)
1.33138313831382e+008	(1.73806251934309e+001dB,1.75579549241764e+002°)
1.33175817581757e+008	(1.73806090876965e+001dB,1.75578025359163e+002°)
1.33213321332132e+008	(1.73805929777736e+001dB,1.75576501574903e+002°)
1.33250825082507e+008	(1.73805768636614e+001dB,1.75574977888917e+002°)
1.33288328832882e+008	(1.73805607453613e+001dB,1.75573454301133e+002°)
1.33325832583257e+008	(1.73805446228733e+001dB,1.75571930811496e+002°)
1.33363336333632e+008	(1.73805284961982e+001dB,1.75570407419921e+002°)
1.33400840084007e+008	(1.73805123653368e+001dB,1.75568884126347e+002°)
1.33438343834382e+008	(1.73804962302897e+001dB,1.75567360930718e+002°)
1.33475847584757e+008	(1.73804800910570e+001dB,1.75565837832962e+002°)
1.33513351335132e+008	(1.73804639476402e+001dB,1.75564314833006e+002°)
1.33550855085507e+008	(1.73804478000390e+001dB,1.75562791930786e+002°)
1.33588358835882e+008	(1.73804316482539e+001dB,1.75561269126248e+002°)
1.33625862586257e+008	(1.73804154922860e+001dB,1.75559746419305e+002°)
1.33663366336632e+008	(1.73803993321365e+001dB,1.75558223809901e+002°)
1.33700870087008e+008	(1.73803831678047e+001dB,1.75556701297972e+002°)
1.33738373837383e+008	(1.73803669992919e+001dB,1.75555178883444e+002°)
1.33775877587758e+008	(1.73803508265981e+001dB,1.75553656566243e+002°)
1.33813381338133e+008	(1.73803346497251e+001dB,1.75552134346336e+002°)
1.33850885088508e+008	(1.73803184686718e+001dB,1.75550612223633e+002°)
1.33888388838883e+008	(1.73803022834405e+001dB,1.75549090198067e+002°)
1.33925892589258e+008	(1.73802860940304e+001dB,1.75547568269582e+002°)
1.33963396339633e+008	(1.73802699004431e+001dB,1.75546046438096e+002°)
1.34000900090008e+008	(1.73802537026788e+001dB,1.75544524703567e+002°)
1.34038403840383e+008	(1.73802375007376e+001dB,1.75543003065898e+002°)
1.34075907590758e+008	(1.73802212946211e+001dB,1.75541481525061e+002°)
1.34113411341133e+008	(1.73802050843286e+001dB,1.75539960080964e+002°)
1.34150915091508e+008	(1.73801888698621e+001dB,1.75538438733548e+002°)
1.34188418841883e+008	(1.73801726512212e+001dB,1.75536917482747e+002°)
1.34225922592258e+008	(1.73801564284071e+001dB,1.75535396328496e+002°)
1.34263426342633e+008	(1.73801402014192e+001dB,1.75533875270743e+002°)
1.34300930093008e+008	(1.73801239702597e+001dB,1.75532354309398e+002°)
1.34338433843383e+008	(1.73801077349284e+001dB,1.75530833444420e+002°)
1.34375937593758e+008	(1.73800914954257e+001dB,1.75529312675725e+002°)
1.34413441344133e+008	(1.73800752517523e+001dB,1.75527792003268e+002°)
1.34450945094508e+008	(1.73800590039089e+001dB,1.75526271426962e+002°)
1.34488448844883e+008	(1.73800427518967e+001dB,1.75524750946751e+002°)
1.34525952595258e+008	(1.73800264957146e+001dB,1.75523230562572e+002°)
1.34563456345633e+008	(1.73800102353650e+001dB,1.75521710274364e+002°)
1.34600960096008e+008	(1.73799939708476e+001dB,1.75520190082061e+002°)
1.34638463846383e+008	(1.73799777021632e+001dB,1.75518669985600e+002°)
1.34675967596758e+008	(1.73799614293121e+001dB,1.75517149984901e+002°)
1.34713471347133e+008	(1.73799451522948e+001dB,1.75515630079927e+002°)
1.34750975097508e+008	(1.73799288711127e+001dB,1.75514110270590e+002°)
1.34788478847883e+008	(1.73799125857654e+001dB,1.75512590556836e+002°)
1.34825982598259e+008	(1.73798962962545e+001dB,1.75511070938598e+002°)
1.34863486348634e+008	(1.73798800025797e+001dB,1.75509551415827e+002°)
1.34900990099009e+008	(1.73798637047416e+001dB,1.75508031988429e+002°)
1.34938493849384e+008	(1.73798474027414e+001dB,1.75506512656375e+002°)
1.34975997599759e+008	(1.73798310965795e+001dB,1.75504993419567e+002°)
1.35013501350134e+008	(1.73798147862562e+001dB,1.75503474277962e+002°)
1.35051005100509e+008	(1.73797984717723e+001dB,1.75501955231487e+002°)
1.35088508850884e+008	(1.73797821531282e+001dB,1.75500436280091e+002°)
1.35126012601259e+008	(1.73797658303246e+001dB,1.75498917423712e+002°)
1.35163516351634e+008	(1.73797495033620e+001dB,1.75497398662266e+002°)
1.35201020102009e+008	(1.73797331722412e+001dB,1.75495879995695e+002°)
1.35238523852384e+008	(1.73797168369628e+001dB,1.75494361423952e+002°)
1.35276027602759e+008	(1.73797004975270e+001dB,1.75492842946965e+002°)
1.35313531353134e+008	(1.73796841539344e+001dB,1.75491324564667e+002°)
1.35351035103509e+008	(1.73796678061861e+001dB,1.75489806277004e+002°)
1.35388538853884e+008	(1.73796514542822e+001dB,1.75488288083902e+002°)
1.35426042604259e+008	(1.73796350982233e+001dB,1.75486769985301e+002°)
1.35463546354634e+008	(1.73796187380106e+001dB,1.75485251981152e+002°)
1.35501050105009e+008	(1.73796023736439e+001dB,1.75483734071359e+002°)
