Circuit: * C:\Users\Dvir\Documents\School Stuff\ENPH 4th Year Term 1\Capstone\NMR_Preamplifier\LTspice\DCMagneticTesting\DCTestBJT.asc

WARNING: Less than two connections to node NC_01.  This node is used by R:U1:E1.
Direct Newton iteration for .op point succeeded.
Semiconductor Device Operating Points:
                        --- Bipolar Transistors ---
Name:     q:u1:1
Model:  u1:m_bfp760
Ib:       6.32e-06
Ic:       2.33e-03
Vbe:      7.34e-01
Vbc:     -1.66e+00
Vce:      2.39e+00
BetaDC:   3.69e+02
Gm:       8.57e-02
Rpi:      4.14e+03
Rx:       3.53e+00
Ro:       1.28e+05
Cbe:      7.49e-13
Cbc:      7.74e-14
Cjs:      1.84e-13
BetaAC:   3.55e+02
Cbx:      3.32e-14
Ft:       1.59e+10



Date: Tue Dec 10 19:37:29 2019
Total elapsed time: 0.080 seconds.

tnom = 25
temp = 27
method = trap
totiter = 5
traniter = 0
tranpoints = 0
accept = 0
rejected = 0
matrix size = 17
fillins = 14
solver = Normal
Matrix Compiler1: 2.41 KB object code size
Matrix Compiler2: 1.77 KB object code size
