Freq.	V(vout2)/V(vin)
1.25000000000000e+008	(4.47895700140510e+001dB,-2.19670205042116e+001°)
1.25037503750375e+008	(4.47892936719814e+001dB,-2.19737696150887e+001°)
1.25075007500750e+008	(4.47890172669634e+001dB,-2.19805181831295e+001°)
1.25112511251125e+008	(4.47887407990049e+001dB,-2.19872662084859e+001°)
1.25150015001500e+008	(4.47884642681312e+001dB,-2.19940136912335e+001°)
1.25187518751875e+008	(4.47881876743530e+001dB,-2.20007606315298e+001°)
1.25225022502250e+008	(4.47879110176843e+001dB,-2.20075070294165e+001°)
1.25262526252625e+008	(4.47876342981454e+001dB,-2.20142528850444e+001°)
1.25300030003000e+008	(4.47873575157532e+001dB,-2.20209981984411e+001°)
1.25337533753375e+008	(4.47870806705160e+001dB,-2.20277429698477e+001°)
1.25375037503750e+008	(4.47868037624554e+001dB,-2.20344871992959e+001°)
1.25412541254125e+008	(4.47865267915906e+001dB,-2.20412308868159e+001°)
1.25450045004500e+008	(4.47862497579272e+001dB,-2.20479740326241e+001°)
1.25487548754875e+008	(4.47859726614861e+001dB,-2.20547166368300e+001°)
1.25525052505250e+008	(4.47856955022888e+001dB,-2.20614586994720e+001°)
1.25562556255625e+008	(4.47854182803424e+001dB,-2.20682002206852e+001°)
1.25600060006001e+008	(4.47851409956716e+001dB,-2.20749412005331e+001°)
1.25637563756376e+008	(4.47848636482820e+001dB,-2.20816816392276e+001°)
1.25675067506751e+008	(4.47845862381995e+001dB,-2.20884215367082e+001°)
1.25712571257126e+008	(4.47843087654326e+001dB,-2.20951608932125e+001°)
1.25750075007501e+008	(4.47840312300002e+001dB,-2.21018997087999e+001°)
1.25787578757876e+008	(4.47837536319173e+001dB,-2.21086379835587e+001°)
1.25825082508251e+008	(4.47834759712035e+001dB,-2.21153757176218e+001°)
1.25862586258626e+008	(4.47831982478667e+001dB,-2.21221129110771e+001°)
1.25900090009001e+008	(4.47829204619289e+001dB,-2.21288495640542e+001°)
1.25937593759376e+008	(4.47826426134069e+001dB,-2.21355856765841e+001°)
1.25975097509751e+008	(4.47823647023133e+001dB,-2.21423212488848e+001°)
1.26012601260126e+008	(4.47820867286633e+001dB,-2.21490562809702e+001°)
1.26050105010501e+008	(4.47818086924732e+001dB,-2.21557907729663e+001°)
1.26087608760876e+008	(4.47815305937618e+001dB,-2.21625247249992e+001°)
1.26125112511251e+008	(4.47812524325452e+001dB,-2.21692581370679e+001°)
1.26162616261626e+008	(4.47809742088339e+001dB,-2.21759910094474e+001°)
1.26200120012001e+008	(4.47806959226479e+001dB,-2.21827233420898e+001°)
1.26237623762376e+008	(4.47804175740029e+001dB,-2.21894551351376e+001°)
1.26275127512751e+008	(4.47801391629128e+001dB,-2.21961863887879e+001°)
1.26312631263126e+008	(4.47798606893940e+001dB,-2.22029171030094e+001°)
1.26350135013501e+008	(4.47795821534678e+001dB,-2.22096472779364e+001°)
1.26387638763876e+008	(4.47793035551412e+001dB,-2.22163769137343e+001°)
1.26425142514251e+008	(4.47790248944352e+001dB,-2.22231060104041e+001°)
1.26462646264626e+008	(4.47787461713656e+001dB,-2.22298345681854e+001°)
1.26500150015001e+008	(4.47784673859436e+001dB,-2.22365625870464e+001°)
1.26537653765376e+008	(4.47781885381921e+001dB,-2.22432900671568e+001°)
1.26575157515751e+008	(4.47779096281229e+001dB,-2.22500170086081e+001°)
1.26612661266126e+008	(4.47776306557545e+001dB,-2.22567434113914e+001°)
1.26650165016501e+008	(4.47773516210999e+001dB,-2.22634692758598e+001°)
1.26687668766876e+008	(4.47770725241755e+001dB,-2.22701946018828e+001°)
1.26725172517251e+008	(4.47767933649977e+001dB,-2.22769193895873e+001°)
1.26762676267627e+008	(4.47765141435825e+001dB,-2.22836436391968e+001°)
1.26800180018002e+008	(4.47762348599422e+001dB,-2.22903673507704e+001°)
1.26837683768377e+008	(4.47759555141008e+001dB,-2.22970905243005e+001°)
1.26875187518752e+008	(4.47756761060705e+001dB,-2.23038131599464e+001°)
1.26912691269127e+008	(4.47753966358608e+001dB,-2.23105352578821e+001°)
1.26950195019502e+008	(4.47751171034950e+001dB,-2.23172568181467e+001°)
1.26987698769877e+008	(4.47748375089896e+001dB,-2.23239778407821e+001°)
1.27025202520252e+008	(4.47745578523546e+001dB,-2.23306983259740e+001°)
1.27062706270627e+008	(4.47742781336092e+001dB,-2.23374182737956e+001°)
1.27100210021002e+008	(4.47739983527680e+001dB,-2.23441376844049e+001°)
1.27137713771377e+008	(4.47737185098522e+001dB,-2.23508565577103e+001°)
1.27175217521752e+008	(4.47734386048695e+001dB,-2.23575748939643e+001°)
1.27212721272127e+008	(4.47731586378394e+001dB,-2.23642926933354e+001°)
1.27250225022502e+008	(4.47728786087780e+001dB,-2.23710099557524e+001°)
1.27287728772877e+008	(4.47725985177063e+001dB,-2.23777266813398e+001°)
1.27325232523252e+008	(4.47723183646310e+001dB,-2.23844428702805e+001°)
1.27362736273627e+008	(4.47720381495711e+001dB,-2.23911585226307e+001°)
1.27400240024002e+008	(4.47717578725436e+001dB,-2.23978736385187e+001°)
1.27437743774377e+008	(4.47714775335655e+001dB,-2.24045882179615e+001°)
1.27475247524752e+008	(4.47711971326487e+001dB,-2.24113022611248e+001°)
1.27512751275127e+008	(4.47709166698157e+001dB,-2.24180157680675e+001°)
1.27550255025502e+008	(4.47706361450756e+001dB,-2.24247287389580e+001°)
1.27587758775877e+008	(4.47703555584489e+001dB,-2.24314411738105e+001°)
1.27625262526252e+008	(4.47700749099469e+001dB,-2.24381530726965e+001°)
1.27662766276627e+008	(4.47697941995910e+001dB,-2.24448644358082e+001°)
1.27700270027002e+008	(4.47695134273897e+001dB,-2.24515752632462e+001°)
1.27737773777377e+008	(4.47692325933691e+001dB,-2.24582855549670e+001°)
1.27775277527752e+008	(4.47689516975351e+001dB,-2.24649953112137e+001°)
1.27812781278127e+008	(4.47686707399117e+001dB,-2.24717045320194e+001°)
1.27850285028502e+008	(4.47683897205075e+001dB,-2.24784132174810e+001°)
1.27887788778878e+008	(4.47681086393460e+001dB,-2.24851213677143e+001°)
1.27925292529253e+008	(4.47678274964373e+001dB,-2.24918289827294e+001°)
1.27962796279628e+008	(4.47675462917935e+001dB,-2.24985360628589e+001°)
1.28000300030003e+008	(4.47672650254396e+001dB,-2.25052426078936e+001°)
1.28037803780378e+008	(4.47669836973889e+001dB,-2.25119486180889e+001°)
1.28075307530753e+008	(4.47667023076553e+001dB,-2.25186540935147e+001°)
1.28112811281128e+008	(4.47664208562558e+001dB,-2.25253590342744e+001°)
1.28150315031503e+008	(4.47661393432054e+001dB,-2.25320634404688e+001°)
1.28187818781878e+008	(4.47658577685213e+001dB,-2.25387673121582e+001°)
1.28225322532253e+008	(4.47655761322166e+001dB,-2.25454706495525e+001°)
1.28262826282628e+008	(4.47652944343096e+001dB,-2.25521734525502e+001°)
1.28300330033003e+008	(4.47650126748148e+001dB,-2.25588757213823e+001°)
1.28337833783378e+008	(4.47647308537520e+001dB,-2.25655774560708e+001°)
1.28375337533753e+008	(4.47644489711313e+001dB,-2.25722786568197e+001°)
1.28412841284128e+008	(4.47641670269731e+001dB,-2.25789793235917e+001°)
1.28450345034503e+008	(4.47638850212897e+001dB,-2.25856794565400e+001°)
1.28487848784878e+008	(4.47636029541013e+001dB,-2.25923790557850e+001°)
1.28525352535253e+008	(4.47633208254200e+001dB,-2.25990781213635e+001°)
1.28562856285628e+008	(4.47630386352601e+001dB,-2.26057766534361e+001°)
1.28600360036003e+008	(4.47627563836461e+001dB,-2.26124746519835e+001°)
1.28637863786378e+008	(4.47624740705865e+001dB,-2.26191721171940e+001°)
1.28675367536753e+008	(4.47621916960966e+001dB,-2.26258690491518e+001°)
1.28712871287128e+008	(4.47619092601943e+001dB,-2.26325654479831e+001°)
1.28750375037503e+008	(4.47616267628964e+001dB,-2.26392613136725e+001°)
1.28787878787878e+008	(4.47613442042174e+001dB,-2.26459566463522e+001°)
1.28825382538253e+008	(4.47610615841754e+001dB,-2.26526514461927e+001°)
1.28862886288628e+008	(4.47607789027815e+001dB,-2.26593457132059e+001°)
1.28900390039003e+008	(4.47604961600585e+001dB,-2.26660394474616e+001°)
1.28937893789378e+008	(4.47602133560165e+001dB,-2.26727326491294e+001°)
1.28975397539753e+008	(4.47599304906740e+001dB,-2.26794253182855e+001°)
1.29012901290128e+008	(4.47596475640461e+001dB,-2.26861174549652e+001°)
1.29050405040504e+008	(4.47593645761490e+001dB,-2.26928090593069e+001°)
1.29087908790879e+008	(4.47590815270002e+001dB,-2.26995001313565e+001°)
1.29125412541254e+008	(4.47587984166119e+001dB,-2.27061906712741e+001°)
1.29162916291629e+008	(4.47585152450010e+001dB,-2.27128806790916e+001°)
1.29200420042004e+008	(4.47582320121855e+001dB,-2.27195701549351e+001°)
1.29237923792379e+008	(4.47579487181766e+001dB,-2.27262590989458e+001°)
1.29275427542754e+008	(4.47576653629979e+001dB,-2.27329475111097e+001°)
1.29312931293129e+008	(4.47573819466598e+001dB,-2.27396353915310e+001°)
1.29350435043504e+008	(4.47570984691788e+001dB,-2.27463227403289e+001°)
1.29387938793879e+008	(4.47568149305724e+001dB,-2.27530095576374e+001°)
1.29425442544254e+008	(4.47565313308541e+001dB,-2.27596958435089e+001°)
1.29462946294629e+008	(4.47562476700414e+001dB,-2.27663815979876e+001°)
1.29500450045004e+008	(4.47559639481526e+001dB,-2.27730668211305e+001°)
1.29537953795379e+008	(4.47556801651966e+001dB,-2.27797515132215e+001°)
1.29575457545754e+008	(4.47553963211971e+001dB,-2.27864356741501e+001°)
1.29612961296129e+008	(4.47551124161628e+001dB,-2.27931193041458e+001°)
1.29650465046504e+008	(4.47548284501153e+001dB,-2.27998024032202e+001°)
1.29687968796879e+008	(4.47545444230696e+001dB,-2.28064849714262e+001°)
1.29725472547254e+008	(4.47542603350399e+001dB,-2.28131670089214e+001°)
1.29762976297629e+008	(4.47539761860417e+001dB,-2.28198485158357e+001°)
1.29800480048004e+008	(4.47536919760897e+001dB,-2.28265294921766e+001°)
1.29837983798379e+008	(4.47534077052059e+001dB,-2.28332099380128e+001°)
1.29875487548754e+008	(4.47531233734016e+001dB,-2.28398898534798e+001°)
1.29912991299129e+008	(4.47528389806908e+001dB,-2.28465692386960e+001°)
1.29950495049504e+008	(4.47525545270921e+001dB,-2.28532480936853e+001°)
1.29987998799879e+008	(4.47522700126223e+001dB,-2.28599264186082e+001°)
1.30025502550254e+008	(4.47519854372960e+001dB,-2.28666042134840e+001°)
1.30063006300629e+008	(4.47517008011271e+001dB,-2.28732814784289e+001°)
1.30100510051004e+008	(4.47514161041344e+001dB,-2.28799582135292e+001°)
1.30138013801379e+008	(4.47511313463339e+001dB,-2.28866344188695e+001°)
1.30175517551754e+008	(4.47508465277408e+001dB,-2.28933100945354e+001°)
1.30213021302130e+008	(4.47505616483680e+001dB,-2.28999852406199e+001°)
1.30250525052505e+008	(4.47502767082354e+001dB,-2.29066598572217e+001°)
1.30288028802880e+008	(4.47499917073571e+001dB,-2.29133339444000e+001°)
1.30325532553255e+008	(4.47497066457528e+001dB,-2.29200075022341e+001°)
1.30363036303630e+008	(4.47494215234309e+001dB,-2.29266805308660e+001°)
1.30400540054005e+008	(4.47491363404139e+001dB,-2.29333530303339e+001°)
1.30438043804380e+008	(4.47488510967142e+001dB,-2.29400250007353e+001°)
1.30475547554755e+008	(4.47485657923500e+001dB,-2.29466964421592e+001°)
1.30513051305130e+008	(4.47482804273339e+001dB,-2.29533673547401e+001°)
1.30550555055505e+008	(4.47479950016838e+001dB,-2.29600377384521e+001°)
1.30588058805880e+008	(4.47477095154163e+001dB,-2.29667075935344e+001°)
1.30625562556255e+008	(4.47474239685462e+001dB,-2.29733769198591e+001°)
1.30663066306630e+008	(4.47471383610853e+001dB,-2.29800457177390e+001°)
1.30700570057005e+008	(4.47468526930602e+001dB,-2.29867139871582e+001°)
1.30738073807380e+008	(4.47465669644808e+001dB,-2.29933817281671e+001°)
1.30775577557755e+008	(4.47462811753598e+001dB,-2.30000489408899e+001°)
1.30813081308130e+008	(4.47459953257155e+001dB,-2.30067156254269e+001°)
1.30850585058505e+008	(4.47457094155636e+001dB,-2.30133817818553e+001°)
1.30888088808880e+008	(4.47454234449252e+001dB,-2.30200474102017e+001°)
1.30925592559255e+008	(4.47451374138061e+001dB,-2.30267125106332e+001°)
1.30963096309630e+008	(4.47448513222299e+001dB,-2.30333770832022e+001°)
1.31000600060005e+008	(4.47445651702091e+001dB,-2.30400411280360e+001°)
1.31038103810380e+008	(4.47442789577611e+001dB,-2.30467046451359e+001°)
1.31075607560755e+008	(4.47439926849027e+001dB,-2.30533676346032e+001°)
1.31113111311130e+008	(4.47437063516464e+001dB,-2.30600300965960e+001°)
1.31150615061505e+008	(4.47434199580124e+001dB,-2.30666920310973e+001°)
1.31188118811880e+008	(4.47431335040120e+001dB,-2.30733534382947e+001°)
1.31225622562255e+008	(4.47428469896668e+001dB,-2.30800143181930e+001°)
1.31263126312630e+008	(4.47425604149853e+001dB,-2.30866746709279e+001°)
1.31300630063005e+008	(4.47422737799912e+001dB,-2.30933344965488e+001°)
1.31338133813380e+008	(4.47419870846940e+001dB,-2.30999937951240e+001°)
1.31375637563756e+008	(4.47417003291133e+001dB,-2.31066525667591e+001°)
1.31413141314131e+008	(4.47414135132641e+001dB,-2.31133108116185e+001°)
1.31450645064506e+008	(4.47411266371601e+001dB,-2.31199685296363e+001°)
1.31488148814881e+008	(4.47408397008183e+001dB,-2.31266257209674e+001°)
1.31525652565256e+008	(4.47405527042582e+001dB,-2.31332823857422e+001°)
1.31563156315631e+008	(4.47402656474929e+001dB,-2.31399385239725e+001°)
1.31600660066006e+008	(4.47399785305366e+001dB,-2.31465941357394e+001°)
1.31638163816381e+008	(4.47396913534096e+001dB,-2.31532492211761e+001°)
1.31675667566756e+008	(4.47394041161246e+001dB,-2.31599037803149e+001°)
1.31713171317131e+008	(4.47391168186969e+001dB,-2.31665578133040e+001°)
1.31750675067506e+008	(4.47388294611427e+001dB,-2.31732113201697e+001°)
1.31788178817881e+008	(4.47385420434803e+001dB,-2.31798643009974e+001°)
1.31825682568256e+008	(4.47382545657211e+001dB,-2.31865167559079e+001°)
1.31863186318631e+008	(4.47379670278851e+001dB,-2.31931686849591e+001°)
1.31900690069006e+008	(4.47376794299870e+001dB,-2.31998200882069e+001°)
1.31938193819381e+008	(4.47373917720447e+001dB,-2.32064709657621e+001°)
1.31975697569756e+008	(4.47371040540679e+001dB,-2.32131213177450e+001°)
1.32013201320131e+008	(4.47368162760810e+001dB,-2.32197711441504e+001°)
1.32050705070506e+008	(4.47365284380932e+001dB,-2.32264204451200e+001°)
1.32088208820881e+008	(4.47362405401220e+001dB,-2.32330692207090e+001°)
1.32125712571256e+008	(4.47359525821848e+001dB,-2.32397174710197e+001°)
1.32163216321631e+008	(4.47356645642959e+001dB,-2.32463651961277e+001°)
1.32200720072006e+008	(4.47353764864730e+001dB,-2.32530123960928e+001°)
1.32238223822381e+008	(4.47350883487307e+001dB,-2.32596590710296e+001°)
1.32275727572756e+008	(4.47348001510870e+001dB,-2.32663052209740e+001°)
1.32313231323131e+008	(4.47345118935499e+001dB,-2.32729508461067e+001°)
1.32350735073506e+008	(4.47342235761447e+001dB,-2.32795959463842e+001°)
1.32388238823881e+008	(4.47339351988871e+001dB,-2.32862405218900e+001°)
1.32425742574256e+008	(4.47336467617856e+001dB,-2.32928845728206e+001°)
1.32463246324631e+008	(4.47333582648595e+001dB,-2.32995280991901e+001°)
1.32500750075006e+008	(4.47330697081251e+001dB,-2.33061711011164e+001°)
1.32538253825382e+008	(4.47327810916028e+001dB,-2.33128135785232e+001°)
1.32575757575757e+008	(4.47324924153012e+001dB,-2.33194555316934e+001°)
1.32613261326132e+008	(4.47322036792396e+001dB,-2.33260969605913e+001°)
1.32650765076507e+008	(4.47319148834375e+001dB,-2.33327378652901e+001°)
1.32688268826882e+008	(4.47316260279005e+001dB,-2.33393782459948e+001°)
1.32725772577257e+008	(4.47313371126531e+001dB,-2.33460181026606e+001°)
1.32763276327632e+008	(4.47310481377111e+001dB,-2.33526574353454e+001°)
1.32800780078007e+008	(4.47307591030872e+001dB,-2.33592962442141e+001°)
1.32838283828382e+008	(4.47304700087960e+001dB,-2.33659345294069e+001°)
1.32875787578757e+008	(4.47301808548587e+001dB,-2.33725722908114e+001°)
1.32913291329132e+008	(4.47298916412873e+001dB,-2.33792095286034e+001°)
1.32950795079507e+008	(4.47296023681008e+001dB,-2.33858462428891e+001°)
1.32988298829882e+008	(4.47293130353049e+001dB,-2.33924824337791e+001°)
1.33025802580257e+008	(4.47290236429295e+001dB,-2.33991181012854e+001°)
1.33063306330632e+008	(4.47287341909837e+001dB,-2.34057532454589e+001°)
1.33100810081007e+008	(4.47284446794831e+001dB,-2.34123878664542e+001°)
1.33138313831382e+008	(4.47281551084462e+001dB,-2.34190219643052e+001°)
1.33175817581757e+008	(4.47278654778887e+001dB,-2.34256555390221e+001°)
1.33213321332132e+008	(4.47275757878229e+001dB,-2.34322885908409e+001°)
1.33250825082507e+008	(4.47272860382660e+001dB,-2.34389211197459e+001°)
1.33288328832882e+008	(4.47269962292364e+001dB,-2.34455531258294e+001°)
1.33325832583257e+008	(4.47267063607444e+001dB,-2.34521846091680e+001°)
1.33363336333632e+008	(4.47264164328165e+001dB,-2.34588155697897e+001°)
1.33400840084007e+008	(4.47261264454573e+001dB,-2.34654460078667e+001°)
1.33438343834382e+008	(4.47258363986873e+001dB,-2.34720759234568e+001°)
1.33475847584757e+008	(4.47255462925241e+001dB,-2.34787053165558e+001°)
1.33513351335132e+008	(4.47252561269797e+001dB,-2.34853341873584e+001°)
1.33550855085507e+008	(4.47249659020751e+001dB,-2.34919625358031e+001°)
1.33588358835882e+008	(4.47246756178209e+001dB,-2.34985903620477e+001°)
1.33625862586257e+008	(4.47243852742370e+001dB,-2.35052176662108e+001°)
1.33663366336632e+008	(4.47240948713378e+001dB,-2.35118444483001e+001°)
1.33700870087008e+008	(4.47238044091388e+001dB,-2.35184707084183e+001°)
1.33738373837383e+008	(4.47235138876567e+001dB,-2.35250964466380e+001°)
1.33775877587758e+008	(4.47232233069031e+001dB,-2.35317216630641e+001°)
1.33813381338133e+008	(4.47229326669022e+001dB,-2.35383463577084e+001°)
1.33850885088508e+008	(4.47226419676614e+001dB,-2.35449705307061e+001°)
1.33888388838883e+008	(4.47223512092041e+001dB,-2.35515941821184e+001°)
1.33925892589258e+008	(4.47220603915387e+001dB,-2.35582173120013e+001°)
1.33963396339633e+008	(4.47217695146896e+001dB,-2.35648399204171e+001°)
1.34000900090008e+008	(4.47214785786649e+001dB,-2.35714620074949e+001°)
1.34038403840383e+008	(4.47211875834815e+001dB,-2.35780835733514e+001°)
1.34075907590758e+008	(4.47208965291606e+001dB,-2.35847046179019e+001°)
1.34113411341133e+008	(4.47206054157166e+001dB,-2.35913251413221e+001°)
1.34150915091508e+008	(4.47203142431593e+001dB,-2.35979451437318e+001°)
1.34188418841883e+008	(4.47200230115127e+001dB,-2.36045646251238e+001°)
1.34225922592258e+008	(4.47197317207866e+001dB,-2.36111835856502e+001°)
1.34263426342633e+008	(4.47194403710006e+001dB,-2.36178020252727e+001°)
1.34300930093008e+008	(4.47191489621653e+001dB,-2.36244199442031e+001°)
1.34338433843383e+008	(4.47188574943073e+001dB,-2.36310373423813e+001°)
1.34375937593758e+008	(4.47185659674328e+001dB,-2.36376542199563e+001°)
1.34413441344133e+008	(4.47182743815608e+001dB,-2.36442705769740e+001°)
1.34450945094508e+008	(4.47179827367059e+001dB,-2.36508864135659e+001°)
1.34488448844883e+008	(4.47176910328864e+001dB,-2.36575017297911e+001°)
1.34525952595258e+008	(4.47173992701122e+001dB,-2.36641165257196e+001°)
1.34563456345633e+008	(4.47171074484079e+001dB,-2.36707308013746e+001°)
1.34600960096008e+008	(4.47168155677875e+001dB,-2.36773445568457e+001°)
1.34638463846383e+008	(4.47165236282637e+001dB,-2.36839577922403e+001°)
1.34675967596758e+008	(4.47162316298493e+001dB,-2.36905705076770e+001°)
1.34713471347133e+008	(4.47159395725665e+001dB,-2.36971827030975e+001°)
1.34750975097508e+008	(4.47156474564331e+001dB,-2.37037943786557e+001°)
1.34788478847883e+008	(4.47153552814542e+001dB,-2.37104055344921e+001°)
1.34825982598259e+008	(4.47150630476563e+001dB,-2.37170161705561e+001°)
1.34863486348634e+008	(4.47147707550536e+001dB,-2.37236262869082e+001°)
1.34900990099009e+008	(4.47144784036539e+001dB,-2.37302358838000e+001°)
1.34938493849384e+008	(4.47141859934851e+001dB,-2.37368449610780e+001°)
1.34975997599759e+008	(4.47138935245542e+001dB,-2.37434535190164e+001°)
1.35013501350134e+008	(4.47136009968789e+001dB,-2.37500615576148e+001°)
1.35051005100509e+008	(4.47133084104730e+001dB,-2.37566690769398e+001°)
1.35088508850884e+008	(4.47130157653627e+001dB,-2.37632760769573e+001°)
1.35126012601259e+008	(4.47127230615498e+001dB,-2.37698825579145e+001°)
1.35163516351634e+008	(4.47124302990603e+001dB,-2.37764885197907e+001°)
1.35201020102009e+008	(4.47121374779055e+001dB,-2.37830939627210e+001°)
1.35238523852384e+008	(4.47118445981057e+001dB,-2.37896988866823e+001°)
1.35276027602759e+008	(4.47115516596708e+001dB,-2.37963032917905e+001°)
1.35313531353134e+008	(4.47112586626210e+001dB,-2.38029071781472e+001°)
1.35351035103509e+008	(4.47109656069695e+001dB,-2.38095105458296e+001°)
